(1606697254.887004) vcan0 2F1#2F0E33
(1606697255.087217) vcan0 6BF#AF83DB7A13
(1606697255.287341) vcan0 4A5#133E2234CA8681
(1606697255.487537) vcan0 453#1024FE3ECC4FA856
(1606697255.687738) vcan0 2C1#A8AEDA6C
(1606697255.887854) vcan0 373#7094450A
(1606697256.088042) vcan0 0C4#D6B7672A5694FC67
(1606697256.288254) vcan0 4C0#E154BE11B1BF5547
(1606697256.488385) vcan0 37C#5F
(1606697256.688557) vcan0 4E6#4F68E1768CD1993D
(1606697256.888747) vcan0 636#5658
(1606697257.088920) vcan0 44D#564AF05F0EF7
(1606697257.289103) vcan0 2DA#006DDF574EDE5153
(1606697257.489332) vcan0 053#E8
(1606697257.689434) vcan0 5DB#6DBD33649B9A9354
(1606697257.889697) vcan0 328#4D5AE91BA4E6AE36
(1606697258.089887) vcan0 560#E0E05D0B46D2311B
(1606697258.290055) vcan0 4BA#D2A3CB58F0B2784B
(1606697258.490275) vcan0 792#7AADC054DFE3844A
(1606697258.690493) vcan0 08F#
(1606697258.890609) vcan0 0CE#B889E84D21A11E04
(1606697259.090802) vcan0 15E#
(1606697259.291013) vcan0 15E#D5996C0E862C
(1606697259.491242) vcan0 1F5#2B13
(1606697259.691319) vcan0 5CE#9BE1907A885A4914
(1606697259.891517) vcan0 53B#790DC25FCD2C0A5F
(1606697260.091641) vcan0 197#AC108F
(1606697260.291836) vcan0 2C3#90A5DA1091A3AF6A
(1606697260.491930) vcan0 386#B344CE6EE57C1831
(1606697260.692086) vcan0 4E8#1E7CF16A4796E80E
(1606697260.892328) vcan0 691#CDC263
(1606697261.092505) vcan0 215#DB3F880DE3670A27
(1606697261.292619) vcan0 204#6CC2533B3F07DD
(1606697261.492822) vcan0 6E5#0C34E7607C
(1606697261.693015) vcan0 2D8#A222FD639B3DCC38
(1606697261.893126) vcan0 051#2CE17B
(1606697262.093325) vcan0 77B#BCE0315C64E4EA78
(1606697262.293542) vcan0 4CB#AB7AD3075CCB1B55
(1606697262.493794) vcan0 2CE#E3FB4403E47C3564
(1606697262.693992) vcan0 371#C7E43F0B75DDDA74
(1606697262.894199) vcan0 535#B4E4B7
(1606697263.094341) vcan0 718#
(1606697263.294535) vcan0 578#8B3F0E6AC98DFC67
(1606697263.494766) vcan0 76C#A0F11513E70E856E
(1606697263.694916) vcan0 697#4BF36F67627B4221
(1606697263.895124) vcan0 738#BF465E7606A2
(1606697264.095339) vcan0 36F#EA1E
(1606697264.295640) vcan0 660#559C
(1606697264.495856) vcan0 2E5#B0DFB217FE219F0E
(1606697264.696058) vcan0 1C9#EE23E13F41F786
(1606697264.896357) vcan0 380#0A858325EC72C41A
(1606697265.096519) vcan0 432#D3814909C9CA4D57
(1606697265.296733) vcan0 107#2C4690783F784C5E
(1606697265.497004) vcan0 315#461A3955848E7753
(1606697265.697205) vcan0 78D#
(1606697265.897416) vcan0 4E2#83295916C8E7B243
(1606697266.097635) vcan0 2C2#C6095252
(1606697266.297851) vcan0 57B#CCFB9C15
(1606697266.498046) vcan0 12E#E7E372226015
(1606697266.698263) vcan0 781#2AE0E94A88409B1B
(1606697266.898478) vcan0 2D9#C8B8E779EFBD
(1606697267.098694) vcan0 341#734CEA4FCE82FA1A
(1606697267.298974) vcan0 43E#BBD0FC0D21493916
(1606697267.421670) vcan0 188#010000
(1606697267.499188) vcan0 391#E930EC5954EE1731
(1606697267.523470) vcan0 188#020000
(1606697267.626854) vcan0 188#020000
(1606697267.699383) vcan0 373#DFF22D09EE18365A
(1606697267.730428) vcan0 188#010000
(1606697267.834012) vcan0 188#010000
(1606697267.899583) vcan0 063#E989E46192F9937A
(1606697267.937634) vcan0 188#020000
(1606697268.041106) vcan0 188#020000
(1606697268.099783) vcan0 782#
(1606697268.144728) vcan0 188#010000
(1606697268.248410) vcan0 188#010000
(1606697268.299989) vcan0 38A#8CA7406964AE894C
(1606697268.351906) vcan0 188#020000
(1606697268.455421) vcan0 188#020000
(1606697268.500258) vcan0 572#536CFC48
(1606697268.559010) vcan0 188#010000
(1606697268.662612) vcan0 188#020000
(1606697268.700371) vcan0 362#814BF749A03F
(1606697268.766143) vcan0 188#020000
(1606697268.869755) vcan0 188#010000
(1606697268.900561) vcan0 29E#C188FE4730D6FB08
(1606697268.973289) vcan0 188#010000
(1606697269.076853) vcan0 188#010000
(1606697269.100864) vcan0 67C#84C4133AEF19AC4E
(1606697269.180435) vcan0 188#020000
(1606697269.284001) vcan0 188#020000
(1606697269.301056) vcan0 459#DD32E2
(1606697269.387598) vcan0 188#010000
(1606697269.489350) vcan0 188#010000
(1606697269.501253) vcan0 60F#4F562E079215
(1606697269.592877) vcan0 188#010000
(1606697269.696367) vcan0 188#010000
(1606697269.701443) vcan0 296#95
(1606697269.799949) vcan0 188#020000
(1606697269.901615) vcan0 45E#84
(1606697269.903552) vcan0 188#010000
(1606697270.005271) vcan0 188#020000
(1606697270.101825) vcan0 475#8432095AD7B74F
(1606697270.108545) vcan0 188#020000
(1606697270.210440) vcan0 188#010000
(1606697270.302028) vcan0 19E#78F7143A3C
(1606697270.313763) vcan0 188#010000
(1606697270.415323) vcan0 188#020000
(1606697270.502242) vcan0 242#6CFA224BBEB03E78
(1606697270.518536) vcan0 188#020000
(1606697270.622360) vcan0 188#020000
(1606697270.702456) vcan0 1E4#
(1606697270.725937) vcan0 188#010000
(1606697270.829498) vcan0 188#020000
(1606697270.902671) vcan0 654#FA8AC17E631C852A
(1606697270.933060) vcan0 188#020000
(1606697271.035079) vcan0 188#020000
(1606697271.102884) vcan0 250#F5317D66E6E4B109
(1606697271.138374) vcan0 188#020000
(1606697271.241944) vcan0 188#010000
(1606697271.303095) vcan0 68B#07E3E348E99AC629
(1606697271.345548) vcan0 188#020000
(1606697271.449237) vcan0 188#020000
(1606697271.503266) vcan0 2AC#B904D3542257FF38
(1606697271.551142) vcan0 188#010000
(1606697271.654475) vcan0 188#020000
(1606697271.703465) vcan0 063#F90E4F41017AF616
(1606697271.758082) vcan0 188#020000
(1606697271.859529) vcan0 188#010000
(1606697271.903549) vcan0 543#3D
(1606697271.961068) vcan0 188#010000
(1606697272.064334) vcan0 188#010000
(1606697272.103734) vcan0 6AB#440010478FC07521
(1606697272.167890) vcan0 188#020000
(1606697272.271517) vcan0 188#010000
(1606697272.303889) vcan0 79A#CC
(1606697272.373099) vcan0 188#010000
(1606697272.474177) vcan0 188#010000
(1606697272.504112) vcan0 07C#52EA741CCC825B
(1606697272.577383) vcan0 188#020000
(1606697272.680984) vcan0 188#010000
(1606697272.704358) vcan0 310#B3670D029BA19C
(1606697272.784574) vcan0 188#010000
(1606697272.888182) vcan0 188#010000
(1606697272.904500) vcan0 2D2#843C633D7F9D0556
(1606697272.991766) vcan0 188#010000
(1606697273.095365) vcan0 188#020000
(1606697273.104703) vcan0 245#A1F4040FA882E848
(1606697273.198959) vcan0 188#010000
(1606697273.301447) vcan0 188#020000
(1606697273.304873) vcan0 07B#A9FCDE5FBE2DEF13
(1606697273.404816) vcan0 188#020000
(1606697273.505073) vcan0 20C#447DC062B7902F
(1606697273.508403) vcan0 188#010000
(1606697273.610151) vcan0 188#020000
(1606697273.705254) vcan0 391#4651A56A2B8BB406
(1606697273.713463) vcan0 188#020000
(1606697273.817035) vcan0 188#020000
(1606697273.905459) vcan0 079#1A59
(1606697273.920637) vcan0 188#010000
(1606697274.022649) vcan0 188#010000
(1606697274.105669) vcan0 1D9#C293EE2DEA14EF28
(1606697274.125973) vcan0 188#020000
(1606697274.229568) vcan0 188#020000
(1606697274.305878) vcan0 7B3#85B68B3C86
(1606697274.333178) vcan0 188#010000
(1606697274.436831) vcan0 188#010000
(1606697274.506164) vcan0 62F#05C81D6174207E1A
(1606697274.538488) vcan0 188#010000
(1606697274.641758) vcan0 188#010000
(1606697274.706352) vcan0 448#1DA36663C3AC
(1606697274.745360) vcan0 188#020000
(1606697274.848980) vcan0 188#010000
(1606697274.906466) vcan0 040#82DA26614CCA
(1606697274.952620) vcan0 188#020000
(1606697275.056210) vcan0 188#020000
(1606697275.106667) vcan0 2AD#035B5E553E6E
(1606697275.159841) vcan0 188#020000
(1606697275.263452) vcan0 188#010000
(1606697275.306873) vcan0 54E#6AF93360C71D8325
(1606697275.367032) vcan0 188#010000
(1606697275.470593) vcan0 188#020000
(1606697275.507096) vcan0 45C#BD2E165B
(1606697275.574194) vcan0 188#010000
(1606697275.677780) vcan0 188#010000
(1606697275.707374) vcan0 5F0#1FBBD577A3F5FC05
(1606697275.781382) vcan0 188#020000
(1606697275.884987) vcan0 188#020000
(1606697275.907530) vcan0 5F4#2920151123
(1606697275.986586) vcan0 188#020000
(1606697276.089831) vcan0 188#020000
(1606697276.107742) vcan0 4AF#97246C4EF798753A
(1606697276.193414) vcan0 188#010000
(1606697276.297249) vcan0 188#010000
(1606697276.307952) vcan0 4D4#BA45AD07
(1606697276.400915) vcan0 188#020000
(1606697276.502693) vcan0 188#010000
(1606697276.508102) vcan0 77B#612FFB2E28A25A71
(1606697276.606022) vcan0 188#020000
(1606697276.708281) vcan0 002#6710DA4A50
(1606697276.709614) vcan0 188#010000
(1606697276.813245) vcan0 188#020000
(1606697276.908566) vcan0 6AE#18
(1606697276.914863) vcan0 188#020000
(1606697277.016350) vcan0 188#020000
(1606697277.108763) vcan0 455#40C9895145
(1606697277.119575) vcan0 188#020000
(1606697277.223134) vcan0 188#020000
(1606697277.308953) vcan0 454#E8E7D477481A125D
(1606697277.326779) vcan0 188#010000
(1606697277.430359) vcan0 188#020000
(1606697277.509252) vcan0 604#6B1E
(1606697277.532029) vcan0 188#020000
(1606697277.635232) vcan0 188#020000
(1606697277.709446) vcan0 040#AAF3
(1606697277.738857) vcan0 188#010000
(1606697277.842480) vcan0 188#010000
(1606697277.909658) vcan0 2B7#2AFA3E0032
(1606697277.946050) vcan0 188#020000
(1606697278.049407) vcan0 188#020000
(1606697278.109828) vcan0 1A1#5A14B277A4D1C303
(1606697278.152699) vcan0 188#010000
(1606697278.254336) vcan0 188#010000
(1606697278.310022) vcan0 3F0#F4
(1606697278.357574) vcan0 188#020000
(1606697278.461136) vcan0 188#020000
(1606697278.510263) vcan0 692#A90D947AE78A8071
(1606697278.564782) vcan0 188#010000
(1606697278.668411) vcan0 188#010000
(1606697278.710546) vcan0 3E1#2C7D586335804B1D
(1606697278.771917) vcan0 188#020000
(1606697278.875498) vcan0 188#020000
(1606697278.910733) vcan0 349#7D9A5D7A4D
(1606697278.977236) vcan0 188#010000
(1606697279.080490) vcan0 188#020000
(1606697279.110898) vcan0 527#01AC4F3F675D345F
(1606697279.184075) vcan0 188#020000
(1606697279.287506) vcan0 188#010000
(1606697279.311150) vcan0 3EB#7CF2A63CA206097C
(1606697279.390767) vcan0 188#010000
(1606697279.492397) vcan0 188#010000
(1606697279.511261) vcan0 110#D4786002B232
(1606697279.595630) vcan0 188#020000
(1606697279.699217) vcan0 188#020000
(1606697279.711425) vcan0 632#5604D76E22CAB31F
(1606697279.802816) vcan0 188#010000
(1606697279.904321) vcan0 188#020000
(1606697279.911668) vcan0 1F0#C1B4A41782E0382A
(1606697280.005772) vcan0 188#020000
(1606697280.109089) vcan0 188#020000
(1606697280.111853) vcan0 557#6A6BB91B38D17564
(1606697280.212655) vcan0 188#010000
(1606697280.312068) vcan0 154#6E51C1019DF4
(1606697280.316286) vcan0 188#010000
(1606697280.419857) vcan0 188#020000
(1606697280.512272) vcan0 5AB#EB451207D2BA563E
(1606697280.521280) vcan0 188#010000
(1606697280.624583) vcan0 188#010000
(1606697280.712466) vcan0 4D4#3A188B1DBFA04672
(1606697280.728203) vcan0 188#020000
(1606697280.831777) vcan0 188#020000
(1606697280.912594) vcan0 197#61A74F6EA86A
(1606697280.933270) vcan0 188#010000
(1606697281.035051) vcan0 188#010000
(1606697281.112793) vcan0 75D#5A9D566B8F
(1606697281.138430) vcan0 188#020000
(1606697281.240364) vcan0 188#010000
(1606697281.313001) vcan0 563#
(1606697281.343637) vcan0 188#020000
(1606697281.447168) vcan0 188#010000
(1606697281.513274) vcan0 4FA#D63F9A
(1606697281.549374) vcan0 188#020000
(1606697281.652758) vcan0 188#020000
(1606697281.713462) vcan0 6DE#
(1606697281.756359) vcan0 188#020000
(1606697281.859973) vcan0 188#010000
(1606697281.913685) vcan0 3D6#D0DCF31E82E1A446
(1606697281.963563) vcan0 188#020000
(1606697282.067134) vcan0 188#010000
(1606697282.113897) vcan0 0E3#549CFB04B7254A3C
(1606697282.170801) vcan0 188#010000
(1606697282.274408) vcan0 188#010000
(1606697282.314169) vcan0 4A7#76C6902E3EA6A058
(1606697282.378007) vcan0 188#020000
(1606697282.479467) vcan0 188#010000
(1606697282.514388) vcan0 745#E610E458A2B6D0
(1606697282.582774) vcan0 188#020000
(1606697282.686313) vcan0 188#020000
(1606697282.714553) vcan0 60C#
(1606697282.789883) vcan0 188#020000
(1606697282.893430) vcan0 188#020000
(1606697282.914755) vcan0 7F0#C39A
(1606697282.995045) vcan0 188#020000
(1606697283.098329) vcan0 188#010000
(1606697283.114892) vcan0 055#3C871B5833774E41
(1606697283.201908) vcan0 188#020000
(1606697283.305489) vcan0 188#020000
(1606697283.315065) vcan0 5D9#665F6E6CB019
(1606697283.408981) vcan0 188#020000
(1606697283.510754) vcan0 188#010000
(1606697283.515387) vcan0 7BE#32FBAC11A2E0
(1606697283.611942) vcan0 188#010000
(1606697283.715107) vcan0 188#020000
(1606697283.715534) vcan0 6F1#5906CF389873
(1606697283.818641) vcan0 188#010000
(1606697283.915727) vcan0 415#
(1606697283.922209) vcan0 188#010000
(1606697284.024451) vcan0 188#020000
(1606697284.115927) vcan0 2A7#FCC1B849B4C8D011
(1606697284.127738) vcan0 188#020000
(1606697284.231270) vcan0 188#010000
(1606697284.316145) vcan0 0FD#2404240AEE28F831
(1606697284.334851) vcan0 188#010000
(1606697284.438455) vcan0 188#020000
(1606697284.516247) vcan0 20F#D93D9C37654A3B
(1606697284.540925) vcan0 188#010000
(1606697284.644302) vcan0 188#020000
(1606697284.716327) vcan0 181#98C189505A
(1606697284.746335) vcan0 188#010000
(1606697284.849602) vcan0 188#020000
(1606697284.916518) vcan0 7DC#0A19D2449AEF7766
(1606697284.953175) vcan0 188#020000
(1606697285.056764) vcan0 188#020000
(1606697285.116688) vcan0 534#3CD0FC6225BCC279
(1606697285.160388) vcan0 188#010000
(1606697285.263945) vcan0 188#020000
(1606697285.316854) vcan0 3C3#BD2F9317D8F7
(1606697285.367506) vcan0 188#020000
(1606697285.471066) vcan0 188#010000
(1606697285.517043) vcan0 366#32033F5C
(1606697285.574720) vcan0 188#010000
(1606697285.678285) vcan0 188#020000
(1606697285.717231) vcan0 451#C1A63C194E4DE970
(1606697285.781891) vcan0 188#020000
(1606697285.885425) vcan0 188#010000
(1606697285.917439) vcan0 35B#3C76E1226A
(1606697285.986771) vcan0 188#010000
(1606697286.089921) vcan0 188#020000
(1606697286.117600) vcan0 1CD#CFB7AA304E
(1606697286.191532) vcan0 188#010000
(1606697286.294756) vcan0 188#020000
(1606697286.317770) vcan0 12B#A8C22A620709F608
(1606697286.398378) vcan0 188#010000
(1606697286.499964) vcan0 188#020000
(1606697286.518007) vcan0 266#A1F86D
(1606697286.603230) vcan0 188#020000
(1606697286.706746) vcan0 188#010000
(1606697286.718186) vcan0 7EF#C0B34900B29BA36A
(1606697286.810310) vcan0 188#010000
(1606697286.913913) vcan0 188#010000
(1606697286.918383) vcan0 774#8A93FA10DA426271
(1606697287.015641) vcan0 188#010000
(1606697287.118514) vcan0 512#E720CE7863A13A03
(1606697287.118907) vcan0 188#020000
(1606697287.222615) vcan0 188#010000
(1606697287.318718) vcan0 3EA#B1EE237445A7EA19
(1606697287.326231) vcan0 188#020000
(1606697287.429928) vcan0 188#020000
(1606697287.518927) vcan0 28E#B0145A3B5BBCA402
(1606697287.532949) vcan0 188#010000
(1606697287.636443) vcan0 188#020000
(1606697287.719186) vcan0 103#A97F056B2E92B85B
(1606697287.738441) vcan0 188#020000
(1606697287.841750) vcan0 188#010000
(1606697287.919435) vcan0 5E7#359B
(1606697287.943804) vcan0 188#010000
(1606697288.046356) vcan0 188#010000
(1606697288.119637) vcan0 605#E9D7EC31F40DA9
(1606697288.149940) vcan0 188#020000
(1606697288.253484) vcan0 188#020000
(1606697288.319880) vcan0 4B5#A7A94C5C29FCBD14
(1606697288.357083) vcan0 188#010000
(1606697288.460697) vcan0 188#010000
(1606697288.520066) vcan0 727#03
(1606697288.564338) vcan0 188#020000
(1606697288.667857) vcan0 188#010000
(1606697288.720301) vcan0 3EE#9C3D2F73D82FB26D
(1606697288.771405) vcan0 188#020000
(1606697288.874986) vcan0 188#010000
(1606697288.920534) vcan0 793#1ED79C07229A6446
(1606697288.978582) vcan0 188#020000
(1606697289.082180) vcan0 188#020000
(1606697289.120697) vcan0 13C#7D5609493FAADB6F
(1606697289.185790) vcan0 188#010000
(1606697289.289442) vcan0 188#010000
(1606697289.320866) vcan0 04D#6E3C944B35FE34
(1606697289.393075) vcan0 188#020000
(1606697289.494439) vcan0 188#010000
(1606697289.521041) vcan0 079#83DE9A
(1606697289.598005) vcan0 188#010000
(1606697289.701575) vcan0 188#010000
(1606697289.721192) vcan0 37A#724415672FC8E62A
(1606697289.805182) vcan0 188#020000
(1606697289.908747) vcan0 188#020000
(1606697289.921373) vcan0 215#58C4A43F3DB1D175
(1606697290.010411) vcan0 188#020000
(1606697290.111720) vcan0 188#020000
(1606697290.121634) vcan0 34B#764DC66539FF290B
(1606697290.213002) vcan0 188#020000
(1606697290.316217) vcan0 188#010000
(1606697290.321828) vcan0 346#112FDC
(1606697290.419776) vcan0 188#020000
(1606697290.521964) vcan0 761#FB24111C9D48A13E
(1606697290.722210) vcan0 1FD#DCF27C2E4BAA6B72
(1606697290.922374) vcan0 1A0#80A8A00E196A681A
(1606697291.122578) vcan0 6EE#97A0D4
(1606697291.322810) vcan0 56F#983A9A59847F817B
(1606697291.522998) vcan0 323#
(1606697291.723210) vcan0 24C#A7FD1E769265B723
(1606697291.923350) vcan0 14B#6BF06379ACC05770
(1606697292.123449) vcan0 2E8#4909F92EE524E4
(1606697292.323603) vcan0 0E0#30CF4F2580
(1606697292.523853) vcan0 370#
(1606697292.724043) vcan0 6B3#
(1606697292.924255) vcan0 239#A7BB70555CA52B6F
(1606697293.124434) vcan0 64F#CAA3205A9BE06B02
(1606697293.324647) vcan0 2A0#2D
(1606697293.524885) vcan0 62A#9734443E1201AF2E
(1606697293.725052) vcan0 3FF#
(1606697293.925264) vcan0 206#5FBF444376653A22
(1606697294.125481) vcan0 4D8#D49715248C6BFF44
(1606697294.325691) vcan0 128#AEA7EE1E62CB3B64
(1606697294.525895) vcan0 3F9#BE70675348
(1606697294.726086) vcan0 7BE#E3DAA0045EBA0059
(1606697294.926323) vcan0 5FA#
(1606697295.126517) vcan0 7A8#36
(1606697295.326730) vcan0 0C2#8780D32EC8DA211D
(1606697295.527019) vcan0 056#3E405C3F2E0DFB
(1606697295.727213) vcan0 3DF#BA78
(1606697295.927425) vcan0 4AC#6A101677A530E316
(1606697296.127633) vcan0 3BE#ED2A18197CD36B22
(1606697296.327783) vcan0 5B1#
(1606697296.528027) vcan0 6E0#D0CFCF3289
(1606697296.728249) vcan0 706#31221012C8BFF9
(1606697296.928441) vcan0 035#909A1B778BA0ED3F
(1606697297.128656) vcan0 29F#B9ADE84E7F2E7A16
(1606697297.328905) vcan0 2E0#87735429
(1606697297.529119) vcan0 6DD#32
(1606697297.729318) vcan0 519#
(1606697297.929548) vcan0 0F0#77E6BA
(1606697298.129749) vcan0 018#5ACEF97A1E07D2
(1606697298.329963) vcan0 34E#E7C6CB1E830BD215
(1606697298.530256) vcan0 343#0EACBF55E375E9
(1606697298.730454) vcan0 446#62A4631726EF4866
(1606697298.930668) vcan0 03C#B3B6483819C7575D
(1606697299.130904) vcan0 3DA#B4916C5AF3A0
(1606697299.331106) vcan0 206#BE3BF82EF6FADA42
(1606697299.531341) vcan0 3BF#C74A0C2BD7
(1606697299.731544) vcan0 07D#F6
(1606697299.931769) vcan0 1AC#4FEF1B53F09CFD00
(1606697300.131978) vcan0 354#D312E7019AAF0518
(1606697300.332194) vcan0 525#C19E4E7E61
(1606697300.532388) vcan0 71E#7A3C6772
(1606697300.732549) vcan0 45A#EB0B300760D6E97A
(1606697300.932758) vcan0 5FB#57D1C43DBB599B5B
(1606697301.132930) vcan0 1DF#929DBC2D5C421951
(1606697301.333137) vcan0 540#2826630EEC3EE741
(1606697301.533340) vcan0 265#DCDBE442BA6D15
(1606697301.733539) vcan0 0D4#541D1B5EFAA5DE57
(1606697301.933737) vcan0 5E4#5B1BEE6C02
(1606697302.133944) vcan0 18A#FADF3E73E415
(1606697302.334066) vcan0 605#45ECAD650024
(1606697302.534316) vcan0 390#BB7D854E6F9D726E
(1606697302.734532) vcan0 1BA#CCDF8B3FFA0E1B1B
(1606697302.934699) vcan0 3D6#E74D025D
(1606697303.134920) vcan0 36B#F66B76
(1606697303.335134) vcan0 073#3972A71157BEC942
(1606697303.535372) vcan0 560#5A33E37AEA
(1606697303.735571) vcan0 56B#CE6CC039
(1606697303.935800) vcan0 73A#702FFE
(1606697304.136051) vcan0 6AF#3AD09A076AF0244F
(1606697304.336254) vcan0 07A#64FF3F6A50CC
(1606697304.536548) vcan0 5FA#8CCA184465D18344
(1606697304.736745) vcan0 70F#A49D
(1606697304.936958) vcan0 7CD#D94DA60E2D051C61
(1606697305.137167) vcan0 573#175C18
(1606697305.337382) vcan0 488#4E8E8876C2
(1606697305.537631) vcan0 1F9#8DC66479A838284C
(1606697305.737834) vcan0 2EA#12294D1B6433D0
(1606697305.938036) vcan0 6CD#B5FF870FC7FC3B
(1606697306.138255) vcan0 5C2#2C
(1606697306.338470) vcan0 0C4#
(1606697306.538701) vcan0 3AE#BEC56C1F21198A3E
(1606697306.738897) vcan0 360#FF9BFE2AE8
(1606697306.939104) vcan0 2BA#AB73ED6FB30CA542
(1606697307.139316) vcan0 00C#5C45CD0EF6521854
(1606697307.339528) vcan0 0FF#5B86E85ACC177832
(1606697307.539783) vcan0 6E5#
(1606697307.739981) vcan0 051#79F96F3015514157
(1606697307.940162) vcan0 68F#A61192153ECA8001
(1606697308.140374) vcan0 7FA#5FE30A40
(1606697308.340546) vcan0 139#436B7766F4E3E13D
(1606697308.540719) vcan0 1AC#A7F08600B8919E21
(1606697308.740932) vcan0 126#AFE4B6
(1606697308.941140) vcan0 472#F101815C573B1669
(1606697309.141307) vcan0 11A#FF478D65
(1606697309.341485) vcan0 143#81926250D247296F
(1606697309.541712) vcan0 746#1012AA7040F703
